freq/Hz	Re(Z)/Ohm	-Im(Z)/Ohm	|Z|/Ohm	Phase(Z)/deg	time/s	<Ewe>/V	<I>/mA	Cs/µF	Cp/µF	cycle number	|Ewe|/V	|I|/A	Ns	I Range	(Q-Qo)/mA.h	<Ece>/V	|Ece|/V	Phase(Zce)/deg	|Zce|/Ohm	Re(Zce)/Ohm	-Im(Zce)/Ohm	Phase(Zwe-ce)/deg	|Zwe-ce|/Ohm	Re(Zwe-ce)/Ohm	-Im(Zwe-ce)/Ohm	P/W	Re(Y)/Ohm-1	Im(Y)/Ohm-1	|Y|/Ohm-1	Phase(Y)/deg	dq/mA.h	
1.0000186E+006	-2.9241573E+001	4.5741653E+001	5.4289673E+001	-1.2258984E+002	6.346163503756979E+004	1.3571516E+001	1.2807947E-005	3.4793667E-003	2.4699576E-003	1.000000000000000E+000	2.8144199E-004	5.1840798E-006	0	14	1.500449503134228E-009	1.3447320E+001	1.8069781E-004	4.3205238E+001	3.4856293E+001	2.5406961E+001	-2.3863098E+001	-9.9941147E+001	2.2212055E+001	-3.8346119E+000	2.1878555E+001	0.0000000E+000	-9.9212481E-003	1.5519489E-002	1.8419709E-002	1.2258984E+002	1.500449503134228E-009
6.7700600E+005	-1.3077118E+001	3.5164925E+001	3.7517769E+001	-1.1039914E+002	6.346215103759570E+004	1.3571962E+001	1.3798051E-005	6.6852546E-003	5.8730450E-003	1.000000000000000E+000	1.9143820E-004	5.1026009E-006	0	14	1.745224621825790E-009	1.3449686E+001	1.2022830E-004	1.6660383E+001	2.3562160E+001	2.2573044E+001	-6.7552285E+000	-7.1517822E+001	2.9954691E+001	9.4959259E+000	2.8409697E+001	0.0000000E+000	-9.2904773E-003	2.4982488E-002	2.6654037E-002	1.1039914E+002	2.447751186915624E-010
4.5833025E+005	-3.7463367E+000	3.6195190E+001	3.6388554E+001	-9.5909286E+001	6.346253603761503E+004	1.3571782E+001	1.4244049E-005	9.5938016E-003	9.4921123E-003	1.000000000000000E+000	1.8758303E-004	5.1550010E-006	0	14	5.799567742375049E-009	1.3447561E+001	1.4321879E-004	-2.8460993E+001	2.7782494E+001	2.4424749E+001	1.3240035E+001	-6.7300781E+001	5.3585804E+001	2.0678413E+001	4.9435226E+001	0.0000000E+000	-2.8292895E-003	2.7335137E-002	2.7481169E-002	9.5909286E+001	4.054343120549259E-009
3.1029172E+005	1.3878423E+001	3.6036575E+001	3.8616646E+001	-6.8937286E+001	6.346292103763449E+004	1.3571808E+001	1.8919134E-005	1.4233327E-002	1.2394938E-002	1.000000000000000E+000	1.8783707E-004	4.8641477E-006	0	14	2.321462930088577E-009	1.3448644E+001	1.8099965E-004	-4.9691597E+001	3.7210968E+001	2.4071836E+001	2.8376097E+001	-5.9494522E+001	7.4761055E+001	3.7950260E+001	6.4412674E+001	0.0000000E+000	9.3065985E-003	2.4165425E-002	2.5895569E-002	6.8937286E+001	-3.478104812286473E-009
2.1007459E+005	2.8782810E+001	1.8307480E+001	3.4111786E+001	-3.2458649E+001	6.346330603765382E+004	1.3571802E+001	1.6245232E-005	4.1382622E-002	1.1919725E-002	1.000000000000000E+000	1.6380652E-004	4.8020502E-006	0	14	1.157461639531397E-008	1.3447802E+001	2.8458919E-004	-6.5281746E+001	5.9264103E+001	2.4781670E+001	5.3834030E+001	-5.3406418E+001	8.9852943E+001	5.3564480E+001	7.2141510E+001	0.0000000E+000	2.4735702E-002	1.5733294E-002	2.9315380E-002	3.2458649E+001	9.253153465225398E-009
1.4222091E+005	1.6881842E+001	-4.7313714E+000	1.7532326E+001	1.5656269E+001	6.346356003766658E+004	1.3571827E+001	1.4752829E-005	-2.3652098E-001	-1.7225215E-002	1.000000000000000E+000	8.5652857E-005	4.8854249E-006	0	14	1.420199865719951E-008	1.3449325E+001	4.3116600E-004	-6.6093201E+001	8.8255577E+001	3.5765579E+001	8.0683769E+001	-5.5271717E+001	9.2414925E+001	5.2647423E+001	7.5952400E+001	0.0000000E+000	5.4921292E-002	-1.5392458E-002	5.7037499E-002	-1.5656269E+001	2.627382261885538E-009
9.6283031E+004	1.2319058E+001	-6.2986727E+000	1.3835913E+001	2.7080431E+001	6.346381403767935E+004	1.3571873E+001	1.4727431E-005	-2.6243475E-001	-5.4388087E-002	1.000000000000000E+000	6.6746223E-005	4.8241286E-006	0	14	1.929451500581712E-008	1.3446679E+001	5.9688522E-004	-6.3467690E+001	1.2372913E+002	5.5270100E+001	1.1069830E+002	-5.7080654E+001	1.2436871E+002	6.7589157E+001	1.0439962E+002	0.0000000E+000	6.4351983E-002	-3.2902841E-002	7.2275683E-002	-2.7080431E+001	5.092516348617613E-009
6.5181484E+004	6.2545838E+000	-7.0698390E+000	9.4394093E+000	4.8501278E+001	6.346419903769868E+004	1.3571795E+001	1.8989684E-005	-3.4537140E-001	-1.9373843E-001	1.000000000000000E+000	4.5938370E-005	4.8666575E-006	0	14	2.193729566830724E-008	1.3448362E+001	8.0024090E-004	-6.2602173E+001	1.6443336E+002	7.5666656E+001	1.4598935E+002	-5.9472023E+001	1.6127530E+002	8.1921242E+001	1.3891951E+002	0.0000000E+000	7.0195422E-002	-7.9345055E-002	1.0593883E-001	-4.8501278E+001	2.642780662490119E-009
4.4128563E+004	4.7040186E+000	-2.9616582E+000	5.5587058E+000	3.2194588E+001	6.346458403771813E+004	1.3571863E+001	1.4739714E-005	-1.2177703E+000	-3.4569088E-001	1.000000000000000E+000	2.6644817E-005	4.7933490E-006	0	14	1.980205580139227E-008	1.3446759E+001	1.0541540E-003	-6.1787006E+001	2.1992015E+002	1.0396739E+002	1.9379282E+002	-6.0340061E+001	2.1960420E+002	1.0867141E+002	1.9083116E+002	0.0000000E+000	1.5223750E-001	-9.5848992E-002	1.7989799E-001	-3.2194588E+001	-2.135239866914973E-009
2.9876783E+004	4.0209141E+000	-2.1939240E+000	4.5805078E+000	2.8618126E+001	6.346496903773746E+004	1.3571793E+001	1.6108226E-005	-2.4280896E+000	-5.5703264E-001	1.000000000000000E+000	2.1694334E-005	4.7362291E-006	0	14	2.197048939043119E-008	1.3448162E+001	1.3775907E-003	-5.9221123E+001	2.9086234E+002	1.4884187E+002	2.4989397E+002	-5.8320076E+001	2.9107104E+002	1.5286279E+002	2.4770004E+002	0.0000000E+000	1.9164501E-001	-1.0456692E-001	2.1831641E-001	-2.8618126E+001	2.168433589038920E-009
2.0227139E+004	4.2993879E+000	-2.9676528E+000	5.2241459E+000	3.4615383E+001	6.346535403775680E+004	1.3571461E+001	1.8295166E-005	-2.6513839E+000	-8.5559487E-001	1.000000000000000E+000	2.4607691E-005	4.7103758E-006	0	14	2.186334074762423E-008	1.3447601E+001	1.7488698E-003	-5.7623459E+001	3.7128030E+002	1.9881357E+002	3.1356375E+002	-5.6817497E+001	3.7111295E+002	2.0311296E+002	3.1059610E+002	0.0000000E+000	1.5753463E-001	-1.0873830E-001	1.9141886E-001	-3.4615383E+001	-1.071486428069573E-010
1.3695073E+004	1.7695291E+000	-8.0744284E-001	1.9450443E+000	2.4527393E+001	6.346573903777613E+004	1.3571452E+001	1.6668402E-005	-1.4392757E+001	-2.4803250E+000	1.000000000000000E+000	9.1687225E-006	4.7138888E-006	0	14	2.505052021662222E-008	1.3447160E+001	2.2407828E-003	-5.5380375E+001	4.7535760E+002	2.7006284E+002	3.9119165E+002	-5.5149731E+001	4.7570230E+002	2.7183237E+002	3.9038422E+002	0.0000000E+000	4.6773380E-001	-2.1342871E-001	5.1412714E-001	-2.4527393E+001	3.187179468997985E-009
9.2692256E+003	8.7819606E-001	-2.0824621E+000	2.2600613E+000	6.7134338E+001	6.346612403779547E+004	1.3571463E+001	1.4225077E-005	-8.2451696E+000	-7.0002470E+000	1.000000000000000E+000	1.0740276E-005	4.7522053E-006	0	14	2.744549023018155E-008	1.3445396E+001	2.8811859E-003	-5.3001106E+001	6.0628394E+002	3.6486142E+002	4.8420694E+002	-5.2816048E+001	6.0515247E+002	3.6573962E+002	4.8212448E+002	0.0000000E+000	1.7192976E-001	-4.0769622E-001	4.4246587E-001	-6.7134338E+001	2.394970013559333E-009
6.2722681E+003	-2.1710622E+000	-2.4530408E+000	3.2758083E+000	1.3151042E+002	6.346650903781492E+004	1.3571667E+001	1.7425980E-005	-1.0344053E+001	-5.8004718E+000	1.000000000000000E+000	1.5740055E-005	4.8049378E-006	0	14	2.725806562364141E-008	1.3447721E+001	3.6531852E-003	-5.0225998E+001	7.6029810E+002	4.8640909E+002	5.8434528E+002	-5.0233509E+001	7.5702380E+002	4.8423804E+002	5.8189221E+002	0.0000000E+000	-2.0231839E-001	-2.2859554E-001	3.0526817E-001	-1.3151042E+002	-1.874246065401366E-010
4.2448467E+003	3.4320015E-001	-2.1117961E+000	2.1395020E+000	8.0769234E+001	6.346693503783632E+004	1.3571610E+001	1.1014469E-005	-1.7754406E+001	-1.7297554E+001	1.000000000000000E+000	1.0414155E-005	4.8675597E-006	0	14	3.622197464297491E-008	1.3445677E+001	4.5924336E-003	-4.7573589E+001	9.4347760E+002	6.3651031E+002	6.9642273E+002	-4.7471539E+001	9.4215179E+002	6.3685352E+002	6.9431091E+002	0.0000000E+000	7.4975960E-002	-4.6134579E-001	4.6739846E-001	-8.0769234E+001	8.963909019333491E-009
2.8779956E+003	1.5689744E+000	-1.7484627E+000	2.3492131E+000	4.8096943E+001	6.346733603785653E+004	1.3571536E+001	7.5694916E-006	-3.1628136E+001	-1.7520300E+001	1.000000000000000E+000	1.0799891E-005	4.5972379E-006	0	14	3.484197133122456E-008	1.3447000E+001	5.3194393E-003	-4.4838024E+001	1.1570946E+003	8.2049921E+002	8.1587311E+002	-4.4721836E+001	1.1569767E+003	8.2206818E+002	8.1412463E+002	0.0000000E+000	2.8429615E-001	-3.1681922E-001	4.2567444E-001	-4.8096943E+001	-1.380003311750345E-009
1.9481171E+003	1.6321853E+000	-1.4092192E-001	1.6382576E+000	4.9346461E+000	6.346801203789050E+004	1.3571756E+001	7.2104790E-006	-5.7973102E+002	-4.2896242E+000	1.000000000000000E+000	8.0156451E-006	4.8927868E-006	0	14	2.854062965642849E-008	1.3447200E+001	6.8438333E-003	-4.1958054E+001	1.3987598E+003	1.0401660E+003	9.3519171E+002	-4.1909100E+001	1.3998798E+003	1.0417982E+003	9.3505078E+002	0.0000000E+000	6.0814214E-001	-5.2506629E-002	6.1040461E-001	-4.9346461E+000	-6.301341674796071E-009
1.3187339E+003	1.5269580E+000	4.5415988E+000	4.7914214E+000	-7.1416534E+001	6.346845803791285E+004	1.3571628E+001	5.9248141E-006	2.6573832E+001	2.3874977E+001	1.000000000000000E+000	2.3114808E-005	4.8242068E-006	0	14	2.776252355554081E-008	1.3453454E+001	8.0693364E-003	-3.8956879E+001	1.6726763E+003	1.3007054E+003	1.0516707E+003	-3.9044754E+001	1.6767211E+003	1.3022324E+003	1.0562123E+003	0.0000000E+000	6.6511743E-002	1.9782448E-001	2.0870633E-001	7.1416534E+001	-7.781061008876751E-010
8.9299957E+002	1.8646981E+000	3.8448765E+000	4.2731924E+000	-6.4127426E+001	6.346890303793526E+004	1.3571682E+001	6.0748425E-006	4.6353920E+001	3.7527218E+001	1.000000000000000E+000	2.0476515E-005	4.7918543E-006	0	14	2.506723590583230E-008	1.3438260E+001	9.4055301E-003	-3.5948944E+001	1.9628164E+003	1.5889792E+003	1.1522991E+003	-3.6007732E+001	1.9665842E+003	1.5908440E+003	1.1561439E+003	0.0000000E+000	1.0211830E-001	2.1056078E-001	2.3401707E-001	6.4127426E+001	-2.695287649708513E-009
6.0441974E+002	2.3694758E+000	-1.6293215E+000	2.8756051E+000	3.4513561E+001	6.346934803795768E+004	1.3571656E+001	6.5252939E-006	-1.6161241E+002	-5.1883564E+001	1.000000000000000E+000	1.3734757E-005	4.7763015E-006	0	14	2.782829654005228E-008	1.3453294E+001	1.0879525E-002	-3.2941658E+001	2.2778137E+003	1.9115975E+003	1.2386404E+003	-3.2874886E+001	2.2789177E+003	1.9139670E+003	1.2370111E+003	0.0000000E+000	2.8654563E-001	-1.9703723E-001	3.4775290E-001	-3.4513561E+001	2.761060634219979E-009
4.0908368E+002	7.2011089E-001	3.4601469E+000	3.5342858E+000	-7.8243660E+001	6.346979303798010E+004	1.3571655E+001	6.9955181E-006	1.1243808E+002	1.0777032E+002	1.000000000000000E+000	1.6850079E-005	4.7676053E-006	0	14	3.007777245934701E-008	1.3446479E+001	1.2405804E-002	-2.9967598E+001	2.6021040E+003	2.2542236E+003	1.2997775E+003	-3.0025629E+001	2.6044578E+003	2.2549438E+003	1.3032377E+003	0.0000000E+000	5.7649579E-002	2.7700728E-001	2.8294259E-001	7.8243660E+001	2.249475919294733E-009
2.7686047E+002	2.1332374E+000	2.4064438E+000	3.2158473E+000	-4.8444012E+001	6.347023403800221E+004	1.3571655E+001	7.0078327E-006	2.3888202E+002	1.3376549E+002	1.000000000000000E+000	1.5326797E-005	4.7660214E-006	0	14	3.325632391916618E-008	1.3440906E+001	1.4001537E-002	-2.7225714E+001	2.9377830E+003	2.6123093E+003	1.3440270E+003	-2.7248390E+001	2.9407810E+003	2.6144426E+003	1.3464335E+003	0.0000000E+000	2.0627585E-001	2.3269385E-001	3.1096005E-001	4.8444012E+001	3.178551459819172E-009
1.8742110E+002	7.0433187E+000	-2.4297519E+000	7.4506397E+000	1.9033031E+001	6.347068503802491E+004	1.3571594E+001	6.7062947E-006	-3.4949402E+002	-3.7168621E+001	1.000000000000000E+000	3.5486595E-005	4.7628923E-006	0	14	2.637180713588805E-008	1.3459949E+001	1.5577947E-002	-2.4803774E+001	3.2706904E+003	2.9689688E+003	1.3720935E+003	-2.4713524E+001	3.2760686E+003	2.9760120E+003	1.3696637E+003	0.0000000E+000	1.2687914E-001	-4.3769825E-002	1.3421667E-001	-1.9033031E+001	-6.884516783278137E-009
1.2699121E+002	1.1474747E+001	1.9583325E+000	1.1640656E+001	-9.6850481E+000	6.347112403804692E+004	1.3571530E+001	5.9774402E-006	6.3997064E+002	1.8112482E+001	1.000000000000000E+000	5.5452754E-005	4.7637136E-006	0	14	3.337020222017549E-008	1.3461913E+001	1.7217053E-002	-2.2319050E+001	3.6142083E+003	3.3434443E+003	1.3725453E+003	-2.2278814E+001	3.6255679E+003	3.3549192E+003	1.3745037E+003	0.0000000E+000	8.4681422E-002	1.4452117E-002	8.5905805E-002	9.6850481E+000	6.998395084287446E-009
8.5907173E+001	1.4357085E+001	1.0666219E+001	1.7885584E+001	-3.6609531E+001	6.347156503806915E+004	1.3571633E+001	7.4149893E-006	1.7369215E+002	6.1772465E+001	1.000000000000000E+000	8.5185522E-005	4.7628037E-006	0	14	3.358911755932089E-008	1.3463998E+001	1.8757308E-002	-1.9976824E+001	3.9382913E+003	3.7013279E+003	1.3454779E+003	-2.0050982E+001	3.9554321E+003	3.7156851E+003	1.3561442E+003	0.0000000E+000	4.4880744E-002	3.3342969E-002	5.5910952E-002	3.6609531E+001	2.189153391453940E-010
5.8157570E+001	9.2359562E+000	8.4608078E+000	1.2525500E+001	-4.2491947E+001	6.347202403809223E+004	1.3571626E+001	6.7395108E-006	3.2344620E+002	1.4758273E+002	1.000000000000000E+000	5.9675222E-005	4.7642984E-006	0	14	3.907874291521946E-008	1.3439903E+001	2.0351710E-002	-1.7849527E+001	4.2717119E+003	4.0660920E+003	1.3093575E+003	-1.7919392E+001	4.2830996E+003	4.0753279E+003	1.3178184E+003	0.0000000E+000	5.8869686E-002	5.3928908E-002	7.9837129E-002	4.2491947E+001	5.489625355898576E-009
3.9407314E+001	9.7389116E+000	-2.8467262E+000	1.0146441E+001	1.6293871E+001	6.347247403811489E+004	1.3571719E+001	6.8380350E-006	-1.4187230E+003	-1.1167645E+002	1.000000000000000E+000	4.8320158E-005	4.7622766E-006	0	14	4.241922696351392E-008	1.3423226E+001	2.1837847E-002	-1.5969727E+001	4.5855898E+003	4.4086191E+003	1.2616306E+003	-1.5902178E+001	4.5941729E+003	4.4183579E+003	1.2587839E+003	0.0000000E+000	9.4598226E-002	-2.7651474E-002	9.8556727E-002	-1.6293871E+001	3.340484048294455E-009
2.6682035E+001	-1.0164801E+000	1.1242278E+001	1.1288137E+001	-9.5166397E+001	6.347289303813595E+004	1.3571613E+001	6.8988643E-006	5.3057507E+002	5.2627277E+002	1.000000000000000E+000	5.3742377E-005	4.7609606E-006	0	14	4.425029681440012E-008	1.3442028E+001	2.3227034E-002	-1.3929823E+001	4.8786445E+003	4.7351699E+003	1.1744521E+003	-1.4060801E+001	4.8803770E+003	4.7341533E+003	1.1856945E+003	0.0000000E+000	-7.9772677E-003	8.8228673E-002	8.8588573E-002	9.5166397E+001	1.831069850886203E-009
1.8042725E+001	8.4290142E+000	-4.8444286E-002	8.4291534E+000	3.2929385E-001	6.347338303816062E+004	1.3571695E+001	1.0497781E-005	-1.8208553E+005	-6.0144048E+000	1.000000000000000E+000	4.0143186E-005	4.7624221E-006	0	14	4.667858252091466E-008	1.3425471E+001	2.4439385E-002	-1.2268353E+001	5.1317134E+003	5.0145210E+003	1.0904413E+003	-1.2247859E+001	5.1399404E+003	5.0229502E+003	1.0903928E+003	0.0000000E+000	1.1863392E-001	-6.8182772E-004	1.1863588E-001	-3.2929385E-001	2.428285706514544E-009
1.2226137E+001	5.2044716E+000	-1.0307211E+001	1.1546650E+001	6.3209194E+001	6.347375103817903E+004	1.3571673E+001	5.8281530E-006	-1.2629603E+003	-1.0063755E+003	1.000000000000000E+000	5.4997243E-005	4.7630474E-006	0	14	1.762885162089687E-008	1.3458906E+001	2.5557263E-002	-1.0847659E+001	5.3657378E+003	5.2698574E+003	1.0098229E+003	-1.0729177E+001	5.3689209E+003	5.2750620E+003	9.9951569E+002	0.0000000E+000	3.9035939E-002	-7.7308841E-002	8.6605206E-002	-6.3209194E+001	-2.904973090001780E-008
8.2759562E+000	1.6946356E+001	-4.6750984E+000	1.7579407E+001	1.5422920E+001	6.347428403820586E+004	1.3571568E+001	8.8484358E-006	-4.1134971E+003	-2.9092715E+002	1.000000000000000E+000	8.3722567E-005	4.7625367E-006	0	14	5.547753567004242E-008	1.3419818E+001	2.6523456E-002	-9.7142382E+000	5.5691865E+003	5.4893330E+003	9.3971295E+002	-9.6376324E+000	5.5851060E+003	5.5062793E+003	9.3503784E+002	0.0000000E+000	5.4836269E-002	-1.5128029E-002	5.6884740E-002	-1.5422920E+001	3.784868404914556E-008
5.6043758E+000	1.3134139E+001	1.2942951E+000	1.3197758E+001	-5.6280041E+000	6.347468303822598E+004	1.3571686E+001	7.1093468E-006	2.1941160E+004	2.1102109E+002	1.000000000000000E+000	6.2873958E-005	4.7639878E-006	0	14	6.861793141954169E-008	1.3451530E+001	2.7516400E-002	-8.6974125E+000	5.7759175E+003	5.7094985E+003	8.7341217E+002	-8.6904182E+000	5.7890967E+003	5.7226328E+003	8.7470648E+002	0.0000000E+000	7.5405203E-002	7.4307560E-003	7.5770445E-002	5.6280041E+000	1.314039574949927E-008
3.7924759E+000	7.0265193E+000	5.8065763E+000	9.1152782E+000	-3.9569653E+001	6.347526203825511E+004	1.3571697E+001	6.5758586E-006	7.2273179E+003	2.9327671E+003	1.000000000000000E+000	4.3417618E-005	4.7631697E-006	0	14	1.442362827637882E-008	1.3470694E+001	2.8363422E-002	-8.1669493E+000	5.9547368E+003	5.8943457E+003	8.4591779E+002	-8.2125893E+000	5.9625186E+003	5.9013721E+003	8.5172437E+002	0.0000000E+000	8.4566899E-002	6.9884405E-002	1.0970592E-001	3.9569653E+001	-5.419430314316286E-008
2.5682116E+000	1.0798526E+001	3.4007457E-001	1.0803880E+001	-1.8038018E+000	6.347610403829743E+004	1.3571769E+001	6.9669100E-006	1.8222803E+005	1.8055270E+002	1.000000000000000E+000	5.1452436E-005	4.7624035E-006	0	14	-3.886191725974994E-008	1.3455018E+001	2.9232439E-002	-7.6824021E+000	6.1381694E+003	6.0830752E+003	8.2056158E+002	-7.6720915E+000	6.1489165E+003	6.0938735E+003	8.2090167E+002	0.0000000E+000	9.2513479E-002	2.9134979E-003	9.2559345E-002	1.8038018E+000	-5.328554553612877E-008
1.7399776E+000	-4.2088273E-001	8.9511127E+000	8.9610023E+000	-9.2692070E+001	6.347733603835944E+004	1.3571404E+001	7.7255445E-006	1.0218789E+004	1.0196246E+004	1.000000000000000E+000	4.2680247E-005	4.7628878E-006	0	14	-1.750718016959733E-008	1.3426554E+001	3.0126123E-002	-7.3761158E+000	6.3251802E+003	6.2728379E+003	8.1204059E+002	-7.4570074E+000	6.3259185E+003	6.2724170E+003	8.2099170E+002	0.0000000E+000	-5.2414006E-003	1.1147150E-001	1.1159466E-001	9.2692070E+001	2.135473709015262E-008
1.1772907E+000	-9.1061068E+000	1.5286964E+001	1.7793608E+001	-1.2078132E+002	6.347914503845037E+004	1.3571562E+001	7.1406103E-006	8.8433164E+003	6.5272412E+003	1.000000000000000E+000	8.4742620E-005	4.7625317E-006	0	14	1.043197096138329E-007	1.3410276E+001	3.1001223E-002	-6.9923730E+000	6.5093999E+003	6.4609854E+003	7.9243622E+002	-7.1358433E+000	6.5022432E+003	6.4518794E+003	8.0772321E+002	0.0000000E+000	-2.8761046E-002	4.8282888E-002	5.6199957E-002	1.2078132E+002	1.218268897834302E-007
7.9621863E-001	9.1711893E+000	3.2041121E-001	9.1767845E+000	-2.0009124E+000	6.348181003858440E+004	1.3571629E+001	7.3490642E-006	6.2384994E+005	7.6052667E+002	1.000000000000000E+000	4.3705160E-005	4.7625790E-006	0	14	2.922815484713510E-007	1.3412521E+001	3.2084607E-002	-6.9291229E+000	6.7368135E+003	6.6876089E+003	8.1273883E+002	-6.9224272E+000	6.7459565E+003	6.6967803E+003	8.1305927E+002	0.0000000E+000	1.0890419E-001	3.8047547E-003	1.0897063E-001	2.0009124E+000	1.879618388575182E-007
5.3938830E-001	1.8671698E+001	1.5416296E+001	2.4213518E+001	-3.9544800E+001	6.348573303878168E+004	1.3571860E+001	6.5089362E-006	1.9139852E+004	7.7585908E+003	1.000000000000000E+000	1.1532162E-004	4.7626959E-006	0	14	4.488586720428821E-007	1.3426032E+001	3.3316508E-002	-7.0039968E+000	6.9953047E+003	6.9431030E+003	8.5299756E+002	-7.1103649E+000	7.0157290E+003	6.9617749E+003	8.6841388E+002	0.0000000E+000	3.1846959E-002	2.6294459E-002	4.1299243E-002	3.9544800E+001	1.565771235715311E-007
3.6507010E-001	3.1082024E+001	7.5933909E+000	3.1996120E+001	-1.3728551E+001	6.349152303907287E+004	1.3571803E+001	6.7495707E-006	5.7412715E+004	3.2335901E+003	1.000000000000000E+000	1.5239202E-004	4.7628282E-006	0	14	3.844271090485133E-007	1.3448564E+001	3.4526695E-002	-7.8821783E+000	7.2492002E+003	7.1807109E+003	9.9412952E+002	-7.9078250E+000	7.2810308E+003	7.2117930E+003	1.0017229E+003	0.0000000E+000	3.0360898E-002	7.4172192E-003	3.1253789E-002	1.3728551E+001	-6.443156299436877E-008
